T2044 000:007.586   SEGGER J-Link V7.82 Log File
T2044 000:007.695   DLL Compiled: Oct 13 2022 13:32:51
T2044 000:007.703   Logging started @ 2024-01-09 09:20
T2044 000:007.709 - 7.713ms
T2044 000:007.719 JLINK_SetWarnOutHandler(...)
T2044 000:007.727 - 0.010ms
T2044 000:007.734 JLINK_OpenEx(...)
T2044 000:009.766   Firmware: J-Link V9 compiled May  7 2021 16:26:12
T2044 000:010.317   Firmware: J-Link V9 compiled May  7 2021 16:26:12
T2044 000:010.468   Decompressing FW timestamp took 114 us
T2044 000:018.810   Hardware: V9.20
T2044 000:018.851   S/N: 4294967295
T2044 000:018.862   OEM: SEGGER
T2044 000:018.872   Feature(s): RDI, GDB, FlashDL, FlashBP, JFlash
T2044 000:021.166   TELNET listener socket opened on port 19021
T2044 000:021.250   WEBSRV WEBSRV_Init(): Starting webserver thread(s)
T2044 000:021.362   WEBSRV Webserver running on local port 19080
T2044 000:025.077 - 17.371ms returns "O.K."
T2044 000:025.122 JLINK_GetEmuCaps()
T2044 000:025.131 - 0.011ms returns 0xB9FF7BBF
T2044 000:025.141 JLINK_TIF_GetAvailable(...)
T2044 000:025.520 - 0.384ms
T2044 000:025.531 JLINK_SetErrorOutHandler(...)
T2044 000:025.537 - 0.009ms
T2044 000:025.553 JLINK_ExecCommand("ProjectFile = "D:\EmbeddedWS\STM32F7\STM32CubeDefault_CAN\MDK-ARM\JLinkSettings.ini"", ...). 
T2044 000:034.616   Device "ARM7" selected.
T2044 000:034.815 - 9.267ms returns 0x00
T2044 000:034.840 JLINK_ExecCommand("Device = STM32F767IGTx", ...). 
T2044 000:035.377   Flash bank @ 0x1FFF0000: SFL: Parsing sectorization info from ELF file
T2044 000:035.392     FlashDevice.SectorInfo[0]: .SectorSize = 0x00000020, .SectorStartAddr = 0x00000000
T2044 000:035.403   OFL: Init() present @ offset 0x000000B5
T2044 000:035.414   OFL: UnInit() present @ offset 0x000000E1
T2044 000:035.425   OFL: EraseSector() N/A
T2044 000:035.435   OFL: ProgramPage() N/A
T2044 000:035.445   OFL: EraseChip() N/A
T2044 000:035.456   OFL: BlankCheck() N/A
T2044 000:035.466   OFL: Verify() present @ offset 0x000001C5
T2044 000:035.477   OFL: SEGGER_FL_Erase() N/A
T2044 000:035.488   OFL: SEGGER_OPEN_Erase() present @ offset 0x00000199
T2044 000:035.498   OFL: SEGGER_FL_Program() N/A
T2044 000:035.508   OFL: SEGGER_OPEN_Program() present @ offset 0x0000010D
T2044 000:035.519   OFL: SEGGER_FL_Read() N/A
T2044 000:035.529   OFL: SEGGER_OPEN_Read() N/A
T2044 000:035.540   OFL: SEGGER_FL_CalcCRC() N/A
T2044 000:035.550   OFL: SEGGER_OPEN_CalcCRC() present @ offset 0x000001AD
T2044 000:035.561   OFL: SEGGER_FL_Start() N/A
T2044 000:035.571   OFL: SEGGER_OPEN_Start() N/A
T2044 000:035.581   OFL: SEGGER_FL_GetFlashInfo() N/A
T2044 000:035.590   OFL: SEGGER_OPEN_GetFlashInfo() N/A
T2044 000:035.600   OFL: SEGGER_FL_Verify() N/A
T2044 000:035.609   OFL: SEGGER_FL_CheckBlank() N/A
T2044 000:035.619   OFL: SEGGER_FL_Prepare() N/A
T2044 000:035.628   OFL: SEGGER_FL_Restore() N/A
T2044 000:035.638   OFL: SEGGER_FL_EraseChip() N/A
T2044 000:035.746   Flash bank @ 0x90000000: SFL: Parsing sectorization info from ELF file
T2044 000:035.756     FlashDevice.SectorInfo[0]: .SectorSize = 0x00010000, .SectorStartAddr = 0x00000000
T2044 000:035.768   OFL: Init() N/A
T2044 000:035.778   OFL: UnInit() N/A
T2044 000:035.788   OFL: EraseSector() N/A
T2044 000:035.797   OFL: ProgramPage() N/A
T2044 000:035.807   OFL: EraseChip() N/A
T2044 000:035.816   OFL: BlankCheck() N/A
T2044 000:035.826   OFL: Verify() N/A
T2044 000:035.836   OFL: SEGGER_FL_Erase() present @ offset 0x0000052D
T2044 000:035.846   OFL: SEGGER_FL_Program() present @ offset 0x00000509
T2044 000:035.856   OFL: SEGGER_FL_Read() N/A
T2044 000:035.866   OFL: SEGGER_OPEN_Read() N/A
T2044 000:035.876   OFL: SEGGER_FL_CalcCRC() present @ offset 0x0000055D
T2044 000:035.886   OFL: SEGGER_FL_Start() present @ offset 0x00000575
T2044 000:035.895   OFL: SEGGER_FL_GetFlashInfo() present @ offset 0x000001BD
T2044 000:035.905   OFL: SEGGER_FL_Verify() N/A
T2044 000:035.915   OFL: SEGGER_FL_CheckBlank() present @ offset 0x00000549
T2044 000:035.925   OFL: SEGGER_FL_Prepare() present @ offset 0x000002E1
T2044 000:035.970   OFL: SEGGER_FL_Restore() present @ offset 0x00000459
T2044 000:035.980   OFL: SEGGER_FL_EraseChip() N/A
T2044 000:039.197   Device "STM32F767IG" selected.
T2044 000:039.437 - 4.592ms returns 0x00
T2044 000:039.452 JLINK_ExecCommand("DisableConnectionTimeout", ...). 
T2044 000:039.461 - 0.004ms returns 0x01
T2044 000:039.469 JLINK_GetHardwareVersion()
T2044 000:039.476 - 0.009ms returns 92000
T2044 000:039.486 JLINK_GetDLLVersion()
T2044 000:039.493 - 0.009ms returns 78200
T2044 000:039.500 JLINK_GetOEMString(...)
T2044 000:039.507 JLINK_GetFirmwareString(...)
T2044 000:039.514 - 0.009ms
T2044 000:039.534 JLINK_GetDLLVersion()
T2044 000:039.540 - 0.009ms returns 78200
T2044 000:039.547 JLINK_GetCompileDateTime()
T2044 000:039.554 - 0.009ms
T2044 000:039.564 JLINK_GetFirmwareString(...)
T2044 000:039.571 - 0.009ms
T2044 000:039.580 JLINK_GetHardwareVersion()
T2044 000:039.587 - 0.009ms returns 92000
T2044 000:039.597 JLINK_GetSN()
T2044 000:039.605 - 0.010ms returns -1
T2044 000:039.612 JLINK_GetOEMString(...)
T2044 000:039.624 JLINK_TIF_Select(JLINKARM_TIF_SWD)
T2044 000:041.138 - 1.534ms returns 0x00
T2044 000:041.168 JLINK_HasError()
T2044 000:041.184 JLINK_SetSpeed(50000)
T2044 000:041.532 - 0.356ms
T2044 000:041.546 JLINK_GetId()
T2044 000:041.937   InitTarget() start
T2044 000:041.961    J-Link Script File: Executing InitTarget()
T2044 000:055.991   InitTarget() end
T2044 000:057.053   Found SW-DP with ID 0x5BA02477
T2044 000:060.166   DPIDR: 0x5BA02477
T2044 000:060.190   CoreSight SoC-400 or earlier
T2044 000:060.203   Scanning AP map to find all available APs
T2044 000:061.122   AP[1]: Stopped AP scan as end of AP map has been reached
T2044 000:061.137   AP[0]: AHB-AP (IDR: 0x74770001)
T2044 000:061.148   Iterating through AP map to find AHB-AP to use
T2044 000:062.322   AP[0]: Core found
T2044 000:062.336   AP[0]: AHB-AP ROM base: 0xE00FD000
T2044 000:062.994   CPUID register: 0x411FC270. Implementer code: 0x41 (ARM)
T2044 000:063.009   Found Cortex-M7 r1p0, Little endian.
T2044 000:063.820   -- Max. mem block: 0x00010E60
T2044 000:064.736   CPU_ReadMem(4 bytes @ 0xE000EDF0)
T2044 000:065.320   CPU_ReadMem(4 bytes @ 0xE0002000)
T2044 000:065.785   FPUnit: 8 code (BP) slots and 0 literal slots
T2044 000:065.797   CPU_ReadMem(4 bytes @ 0xE000EDFC)
T2044 000:066.229   CPU_WriteMem(4 bytes @ 0xE000EDFC)
T2044 000:066.846   CPU_ReadMem(4 bytes @ 0xE0001000)
T2044 000:067.261   CPU_WriteMem(4 bytes @ 0xE0001000)
T2044 000:067.793   CPU_ReadMem(4 bytes @ 0xE000ED88)
T2044 000:068.268   CPU_WriteMem(4 bytes @ 0xE000ED88)
T2044 000:068.799   CPU_ReadMem(4 bytes @ 0xE000ED88)
T2044 000:069.260   CPU_WriteMem(4 bytes @ 0xE000ED88)
T2044 000:069.842   CoreSight components:
T2044 000:069.863   ROMTbl[0] @ E00FD000
T2044 000:069.874   CPU_ReadMem(64 bytes @ 0xE00FD000)
T2044 000:070.603   CPU_ReadMem(32 bytes @ 0xE00FEFE0)
T2044 000:071.162   [0][0]: E00FE000 CID B105100D PID 000BB4C8 ROM Table
T2044 000:071.175   ROMTbl[1] @ E00FE000
T2044 000:071.186   CPU_ReadMem(64 bytes @ 0xE00FE000)
T2044 000:071.875   CPU_ReadMem(32 bytes @ 0xE00FFFE0)
T2044 000:072.435   [1][0]: E00FF000 CID B105100D PID 000BB4C7 ROM Table
T2044 000:072.450   ROMTbl[2] @ E00FF000
T2044 000:072.460   CPU_ReadMem(64 bytes @ 0xE00FF000)
T2044 000:073.149   CPU_ReadMem(32 bytes @ 0xE000EFE0)
T2044 000:073.740   [2][0]: E000E000 CID B105E00D PID 000BB00C SCS-M7
T2044 000:073.751   CPU_ReadMem(32 bytes @ 0xE0001FE0)
T2044 000:074.443   [2][1]: E0001000 CID B105E00D PID 000BB002 DWT
T2044 000:074.454   CPU_ReadMem(32 bytes @ 0xE0002FE0)
T2044 000:075.047   [2][2]: E0002000 CID B105E00D PID 000BB00E FPB-M7
T2044 000:075.059   CPU_ReadMem(32 bytes @ 0xE0000FE0)
T2044 000:075.576   [2][3]: E0000000 CID B105E00D PID 000BB001 ITM
T2044 000:075.590   CPU_ReadMem(32 bytes @ 0xE0041FE0)
T2044 000:076.141   [1][1]: E0041000 CID B105900D PID 001BB975 ETM-M7
T2044 000:076.165   CPU_ReadMem(32 bytes @ 0xE0040FE0)
T2044 000:076.741   [0][1]: E0040000 CID B105900D PID 000BB9A9 TPIU-M7
T2044 000:076.759   CPU_ReadMem(4 bytes @ 0xE000ED78)
T2044 000:077.323   Cache: Separate I- and D-cache.
T2044 000:077.331   CPU_WriteMem(4 bytes @ 0xE000ED84)
T2044 000:077.817   CPU_ReadMem(4 bytes @ 0xE000ED80)
T2044 000:078.227   I-Cache L1: 16 KB, 256 Sets, 32 Bytes/Line, 2-Way
T2044 000:078.238   CPU_WriteMem(4 bytes @ 0xE000ED84)
T2044 000:078.717   CPU_ReadMem(4 bytes @ 0xE000ED80)
T2044 000:079.325   D-Cache L1: 16 KB, 128 Sets, 32 Bytes/Line, 4-Way
T2044 000:079.807 - 38.266ms returns 0x5BA02477
T2044 000:079.822 JLINK_GetDLLVersion()
T2044 000:079.828 - 0.009ms returns 78200
T2044 000:079.898 JLINK_CORE_GetFound()
T2044 000:079.906 - 0.011ms returns 0xE0100FF
T2044 000:079.913 JLINK_GetDebugInfo(0x100 = JLINKARM_ROM_TABLE_ADDR_INDEX)
T2044 000:079.923   Value=0xE00FD000
T2044 000:079.932 - 0.021ms returns 0
T2044 000:079.943 JLINK_GetDebugInfo(0x100 = JLINKARM_ROM_TABLE_ADDR_INDEX)
T2044 000:079.950   Value=0xE00FD000
T2044 000:079.959 - 0.019ms returns 0
T2044 000:079.966 JLINK_GetDebugInfo(0x101 = JLINKARM_DEBUG_INFO_ETM_ADDR_INDEX)
T2044 000:079.973   Value=0xE0041000
T2044 000:079.982 - 0.018ms returns 0
T2044 000:079.990 JLINK_ReadMemEx(0xE0041FD0, 0x20 Bytes, Flags = 0x02000004)
T2044 000:080.010   CPU_ReadMem(32 bytes @ 0xE0041FD0)
T2044 000:080.595   Data:  04 00 00 00 00 00 00 00 00 00 00 00 00 00 00 00 ...
T2044 000:080.606 - 0.618ms returns 32 (0x20)
T2044 000:080.614 JLINK_GetDebugInfo(0x102 = JLINKARM_DEBUG_INFO_MTB_ADDR_INDEX)
T2044 000:080.620   Value=0x00000000
T2044 000:080.629 - 0.018ms returns 0
T2044 000:080.636 JLINK_GetDebugInfo(0x103 = JLINKARM_DEBUG_INFO_TPIU_ADDR_INDEX)
T2044 000:080.643   Value=0xE0040000
T2044 000:080.652 - 0.018ms returns 0
T2044 000:080.659 JLINK_GetDebugInfo(0x104 = JLINKARM_DEBUG_INFO_ITM_ADDR_INDEX)
T2044 000:080.665   Value=0xE0000000
T2044 000:080.674 - 0.018ms returns 0
T2044 000:080.681 JLINK_GetDebugInfo(0x105 = JLINKARM_DEBUG_INFO_DWT_ADDR_INDEX)
T2044 000:080.688   Value=0xE0001000
T2044 000:080.697 - 0.018ms returns 0
T2044 000:080.704 JLINK_GetDebugInfo(0x106 = JLINKARM_DEBUG_INFO_FPB_ADDR_INDEX)
T2044 000:080.710   Value=0xE0002000
T2044 000:080.719 - 0.018ms returns 0
T2044 000:080.726 JLINK_GetDebugInfo(0x107 = JLINKARM_DEBUG_INFO_NVIC_ADDR_INDEX)
T2044 000:080.732   Value=0xE000E000
T2044 000:080.741 - 0.018ms returns 0
T2044 000:080.748 JLINK_GetDebugInfo(0x10C = JLINKARM_DEBUG_INFO_DBG_ADDR_INDEX)
T2044 000:080.755   Value=0xE000EDF0
T2044 000:080.764 - 0.018ms returns 0
T2044 000:080.771 JLINK_GetDebugInfo(0x01 = Unknown)
T2044 000:080.778   Value=0x00000001
T2044 000:080.787 - 0.019ms returns 0
T2044 000:080.794 JLINK_ReadMemU32(0xE000ED00, 0x1 Items)
T2044 000:080.803   CPU_ReadMem(4 bytes @ 0xE000ED00)
T2044 000:081.273   Data:  70 C2 1F 41
T2044 000:081.284   Debug reg: CPUID
T2044 000:081.293 - 0.501ms returns 1 (0x1)
T2044 000:081.301 JLINK_GetDebugInfo(0x10F = JLINKARM_DEBUG_INFO_HAS_CORTEX_M_SECURITY_EXT_INDEX)
T2044 000:081.307   Value=0x00000000
T2044 000:081.316 - 0.018ms returns 0
T2044 000:081.324 JLINK_HasError()
T2044 000:081.331 JLINK_SetResetType(JLINKARM_CM3_RESET_TYPE_NORMAL)
T2044 000:081.338 - 0.009ms returns JLINKARM_CM3_RESET_TYPE_NORMAL
T2044 000:081.345 JLINK_Reset()
T2044 000:081.358   CPU is running
T2044 000:081.368   CPU_WriteMem(4 bytes @ 0xE000EDF0)
T2044 000:081.884   CPU is running
T2044 000:081.895   CPU_WriteMem(4 bytes @ 0xE000EDFC)
T2044 000:082.340   Reset: Halt core after reset via DEMCR.VC_CORERESET.
T2044 000:083.390   Reset: Reset device via AIRCR.SYSRESETREQ.
T2044 000:083.407   CPU is running
T2044 000:083.417   CPU_WriteMem(4 bytes @ 0xE000ED0C)
T2044 000:136.804   CPU_ReadMem(4 bytes @ 0xE000EDF0)
T2044 000:137.279   CPU_ReadMem(4 bytes @ 0xE000EDF0)
T2044 000:137.809   CPU is running
T2044 000:137.819   CPU_WriteMem(4 bytes @ 0xE000EDF0)
T2044 000:138.327   CPU is running
T2044 000:138.336   CPU_WriteMem(4 bytes @ 0xE000EDFC)
T2044 000:144.861   CPU_ReadMem(4 bytes @ 0xE000EDF0)
T2044 000:147.584   CPU_WriteMem(4 bytes @ 0xE0002000)
T2044 000:148.203   CPU_ReadMem(4 bytes @ 0xE000EDFC)
T2044 000:148.811   CPU_ReadMem(4 bytes @ 0xE0001000)
T2044 000:149.492 - 68.162ms
T2044 000:149.522 JLINK_HasError()
T2044 000:149.537 JLINK_ReadReg(R15 (PC))
T2044 000:149.560 - 0.030ms returns 0x080002B8
T2044 000:149.576 JLINK_ReadReg(XPSR)
T2044 000:149.588 - 0.018ms returns 0x01000000
T2044 000:149.601 JLINK_Halt()
T2044 000:149.613 - 0.016ms returns 0x00
T2044 000:149.719 JLINK_ReadMemU32(0xE000EDF0, 0x1 Items)
T2044 000:149.756   CPU_ReadMem(4 bytes @ 0xE000EDF0)
T2044 000:150.216   Data:  03 00 03 00
T2044 000:150.244   Debug reg: DHCSR
T2044 000:150.260 - 0.547ms returns 1 (0x1)
T2044 000:150.278 JLINK_WriteU32_64(0xE000EDF0, 0xA05F0003)
T2044 000:150.293   Debug reg: DHCSR
T2044 000:150.593   CPU_WriteMem(4 bytes @ 0xE000EDF0)
T2044 000:151.202 - 0.939ms returns 0 (0x00000000)
T2044 000:151.227 JLINK_WriteU32_64(0xE000EDFC, 0x01000000)
T2044 000:151.240   Debug reg: DEMCR
T2044 000:151.262   CPU_WriteMem(4 bytes @ 0xE000EDFC)
T2044 000:151.853 - 0.642ms returns 0 (0x00000000)
T2044 000:151.913 JLINK_GetHWStatus(...)
T2044 000:152.330 - 0.436ms returns 0
T2044 000:152.382 JLINK_GetNumBPUnits(Type = 0xFFFFFF00)
T2044 000:152.396 - 0.019ms returns 0x08
T2044 000:152.409 JLINK_GetNumBPUnits(Type = 0xF0)
T2044 000:152.420 - 0.017ms returns 0x2000
T2044 000:152.432 JLINK_GetNumWPUnits()
T2044 000:152.443 - 0.016ms returns 4
T2044 000:152.464 JLINK_GetSpeed()
T2044 000:152.476 - 0.017ms returns 12000
T2044 000:152.493 JLINK_ReadMemU32(0xE000E004, 0x1 Items)
T2044 000:152.512   CPU_ReadMem(4 bytes @ 0xE000E004)
T2044 000:152.996   Data:  03 00 00 00
T2044 000:153.023 - 0.535ms returns 1 (0x1)
T2044 000:153.037 JLINK_ReadMemU32(0xE000E004, 0x1 Items)
T2044 000:153.054   CPU_ReadMem(4 bytes @ 0xE000E004)
T2044 000:153.612   Data:  03 00 00 00
T2044 000:153.639 - 0.608ms returns 1 (0x1)
T2044 000:153.653 JLINK_WriteMemEx(0xE0001000, 0x0000001C Bytes, Flags = 0x02000004)
T2044 000:153.666   Data:  01 00 00 00 00 00 00 00 00 00 00 00 00 00 00 00 ...
T2044 000:153.689   CPU_WriteMem(28 bytes @ 0xE0001000)
T2044 000:154.244 - 0.605ms returns 0x1C
T2044 000:154.269 JLINK_HasError()
T2044 000:154.283 JLINK_ReadReg(R15 (PC))
T2044 000:154.298 - 0.021ms returns 0x080002B8
T2044 000:154.311 JLINK_ReadReg(XPSR)
T2044 000:154.323 - 0.017ms returns 0x01000000
T2044 000:157.196 JLINK_ReadMemEx(0xE0001004, 0x4 Bytes, Flags = 0x02000000)
T2044 000:157.224   Data:  00 00 00 00
T2044 000:157.242   Debug reg: DWT_CYCCNT
T2044 000:157.257 - 0.067ms returns 4 (0x4)
T2044 000:234.606 JLINK_HasError()
T2044 000:234.651 JLINK_SetResetType(JLINKARM_CM3_RESET_TYPE_NORMAL)
T2044 000:234.659 - 0.010ms returns JLINKARM_CM3_RESET_TYPE_NORMAL
T2044 000:234.666 JLINK_Reset()
T2044 000:234.683   CPU_WriteMem(4 bytes @ 0xE000EDF0)
T2044 000:235.307   CPU_WriteMem(4 bytes @ 0xE000EDFC)
T2044 000:235.932   Reset: Halt core after reset via DEMCR.VC_CORERESET.
T2044 000:236.991   Reset: Reset device via AIRCR.SYSRESETREQ.
T2044 000:237.002   CPU_WriteMem(4 bytes @ 0xE000ED0C)
T2044 000:291.461   CPU_ReadMem(4 bytes @ 0xE000EDF0)
T2044 000:292.033   CPU_ReadMem(4 bytes @ 0xE000EDF0)
T2044 000:292.612   CPU_WriteMem(4 bytes @ 0xE000EDF0)
T2044 000:293.237   CPU_WriteMem(4 bytes @ 0xE000EDFC)
T2044 000:299.281   CPU_ReadMem(4 bytes @ 0xE000EDF0)
T2044 000:301.965   CPU_WriteMem(4 bytes @ 0xE0002000)
T2044 000:302.707   CPU_ReadMem(4 bytes @ 0xE000EDFC)
T2044 000:303.498   CPU_ReadMem(4 bytes @ 0xE0001000)
T2044 000:303.996 - 69.345ms
T2044 000:304.126 JLINK_HasError()
T2044 000:304.149 JLINK_ReadReg(R15 (PC))
T2044 000:304.165 - 0.022ms returns 0x080002B8
T2044 000:304.181 JLINK_ReadReg(XPSR)
T2044 000:304.194 - 0.018ms returns 0x01000000
T2044 000:304.562 JLINK_ReadMemEx(0x080002B8, 0x3C Bytes, Flags = 0x02000000)
T2044 000:304.585   CPU_ReadMem(128 bytes @ 0x08000280)
T2044 000:305.453    -- Updating C cache (128 bytes @ 0x08000280)
T2044 000:305.470    -- Read from C cache (60 bytes @ 0x080002B8)
T2044 000:305.480   Data:  09 48 80 47 09 48 00 47 FE E7 FE E7 FE E7 FE E7 ...
T2044 000:305.524 - 0.964ms returns 60 (0x3C)
T2044 000:305.532 JLINK_ReadMemEx(0x080002B8, 0x2 Bytes, Flags = 0x02000000)
T2044 000:305.539    -- Read from C cache (2 bytes @ 0x080002B8)
T2044 000:305.546   Data:  09 48
T2044 000:305.554 - 0.024ms returns 2 (0x2)
T2044 000:305.604 JLINK_ReadMemEx(0x080002BA, 0x2 Bytes, Flags = 0x02000000)
T2044 000:305.610    -- Read from C cache (2 bytes @ 0x080002BA)
T2044 000:305.618   Data:  80 47
T2044 000:305.625 - 0.023ms returns 2 (0x2)
T2044 000:305.639 JLINK_ReadMemEx(0x080002BA, 0x2 Bytes, Flags = 0x02000000)
T2044 000:305.644    -- Read from C cache (2 bytes @ 0x080002BA)
T2044 000:305.652   Data:  80 47
T2044 000:305.659 - 0.023ms returns 2 (0x2)
T2044 000:305.665 JLINK_ReadMemEx(0x080002BC, 0x3C Bytes, Flags = 0x02000000)
T2044 000:305.671    -- Read from C cache (60 bytes @ 0x080002BC)
T2044 000:305.678   Data:  09 48 00 47 FE E7 FE E7 FE E7 FE E7 FE E7 FE E7 ...
T2044 000:305.686 - 0.023ms returns 60 (0x3C)
T2044 000:305.691 JLINK_ReadMemEx(0x080002BC, 0x2 Bytes, Flags = 0x02000000)
T2044 000:305.697    -- Read from C cache (2 bytes @ 0x080002BC)
T2044 000:305.704   Data:  09 48
T2044 000:305.712 - 0.022ms returns 2 (0x2)
T2044 000:404.284 JLINK_ReadMemEx(0x40006400, 0x1C Bytes, Flags = 0x02000004)
T2044 000:404.351   CPU_ReadMem(28 bytes @ 0x40006400)
T2044 000:404.966   Data:  02 00 01 00 0A 0C 00 00 00 00 00 1C 00 00 00 00 ...
T2044 000:404.980 - 0.699ms returns 28 (0x1C)
T2044 000:404.995 JLINK_ReadMemEx(0x4000641C, 0x4 Bytes, Flags = 0x02000004)
T2044 000:405.005   CPU_ReadMem(4 bytes @ 0x4000641C)
T2044 000:405.429   Data:  00 00 23 01
T2044 000:405.439 - 0.447ms returns 4 (0x4)
T2044 000:405.446 JLINK_ReadMemEx(0x40006580, 0x4C Bytes, Flags = 0x02000004)
T2044 000:405.453   CPU_ReadMem(76 bytes @ 0x40006580)
T2044 000:406.203   Data:  00 00 00 00 00 00 00 00 00 00 00 00 00 00 00 00 ...
T2044 000:406.219 - 0.775ms returns 76 (0x4C)
T2044 000:406.228 JLINK_ReadMemEx(0x400065CC, 0x4 Bytes, Flags = 0x02000004)
T2044 000:406.237   CPU_ReadMem(4 bytes @ 0x400065CC)
T2044 000:406.678   Data:  00 00 00 00
T2044 000:406.687 - 0.461ms returns 4 (0x4)
T2044 000:406.694 JLINK_ReadMemEx(0x40006600, 0x4 Bytes, Flags = 0x02000004)
T2044 000:406.701   CPU_ReadMem(4 bytes @ 0x40006600)
T2044 000:407.167   Data:  01 0E 1C 2A
T2044 000:407.177 - 0.485ms returns 4 (0x4)
T2044 000:407.186 JLINK_ReadMemEx(0x40006604, 0x4 Bytes, Flags = 0x02000004)
T2044 000:407.193   CPU_ReadMem(4 bytes @ 0x40006604)
T2044 000:407.679   Data:  00 00 00 00
T2044 000:407.688 - 0.505ms returns 4 (0x4)
T2044 000:407.697 JLINK_ReadMemEx(0x4000660C, 0x4 Bytes, Flags = 0x02000004)
T2044 000:407.703   CPU_ReadMem(4 bytes @ 0x4000660C)
T2044 000:408.168   Data:  00 00 00 00
T2044 000:408.177 - 0.483ms returns 4 (0x4)
T2044 000:408.185 JLINK_ReadMemEx(0x40006614, 0x4 Bytes, Flags = 0x02000004)
T2044 000:408.192   CPU_ReadMem(4 bytes @ 0x40006614)
T2044 000:408.678   Data:  00 00 00 00
T2044 000:408.687 - 0.504ms returns 4 (0x4)
T2044 000:408.695 JLINK_ReadMemEx(0x4000661C, 0x4 Bytes, Flags = 0x02000004)
T2044 000:408.702   CPU_ReadMem(4 bytes @ 0x4000661C)
T2044 000:409.176   Data:  00 00 00 00
T2044 000:409.215 - 0.525ms returns 4 (0x4)
T2044 000:409.235 JLINK_ReadMemEx(0x40006640, 0xDC Bytes, Flags = 0x02000004)
T2044 000:409.255   CPU_ReadMem(220 bytes @ 0x40006640)
T2044 000:410.428   Data:  00 00 00 00 00 00 00 00 00 00 00 00 00 00 00 00 ...
T2044 000:410.459 - 1.227ms returns 220 (0xDC)
T2044 000:410.476 JLINK_ReadMemEx(0x4000671C, 0x4 Bytes, Flags = 0x02000004)
T2044 000:410.490   CPU_ReadMem(4 bytes @ 0x4000671C)
T2044 000:410.929   Data:  00 00 00 00
T2044 000:410.938 - 0.465ms returns 4 (0x4)
T2044 001:255.171 JLINK_ReadMemEx(0x080002B8, 0x3C Bytes, Flags = 0x02000000)
T2044 001:255.225    -- Read from C cache (60 bytes @ 0x080002B8)
T2044 001:255.237   Data:  09 48 80 47 09 48 00 47 FE E7 FE E7 FE E7 FE E7 ...
T2044 001:255.246 - 0.078ms returns 60 (0x3C)
T2044 001:255.254 JLINK_ReadMemEx(0x080002B8, 0x2 Bytes, Flags = 0x02000000)
T2044 001:255.269    -- Read from C cache (2 bytes @ 0x080002B8)
T2044 001:255.278   Data:  09 48
T2044 001:255.288 - 0.037ms returns 2 (0x2)
T2044 001:255.296 JLINK_ReadMemEx(0x080002BA, 0x2 Bytes, Flags = 0x02000000)
T2044 001:255.303    -- Read from C cache (2 bytes @ 0x080002BA)
T2044 001:255.313   Data:  80 47
T2044 001:255.322 - 0.028ms returns 2 (0x2)
T2044 001:255.334 JLINK_ReadMemEx(0x080002BA, 0x2 Bytes, Flags = 0x02000000)
T2044 001:255.341    -- Read from C cache (2 bytes @ 0x080002BA)
T2044 001:255.351   Data:  80 47
T2044 001:255.360 - 0.028ms returns 2 (0x2)
T2044 001:255.367 JLINK_ReadMemEx(0x080002BC, 0x3C Bytes, Flags = 0x02000000)
T2044 001:255.374    -- Read from C cache (60 bytes @ 0x080002BC)
T2044 001:255.384   Data:  09 48 00 47 FE E7 FE E7 FE E7 FE E7 FE E7 FE E7 ...
T2044 001:255.393 - 0.029ms returns 60 (0x3C)
T2044 001:255.400 JLINK_ReadMemEx(0x080002BC, 0x2 Bytes, Flags = 0x02000000)
T2044 001:255.407    -- Read from C cache (2 bytes @ 0x080002BC)
T2044 001:255.416   Data:  09 48
T2044 001:255.425 - 0.028ms returns 2 (0x2)
T2044 001:255.434 JLINK_ReadMemEx(0x080002BC, 0x3C Bytes, Flags = 0x02000000)
T2044 001:255.441    -- Read from C cache (60 bytes @ 0x080002BC)
T2044 001:255.450   Data:  09 48 00 47 FE E7 FE E7 FE E7 FE E7 FE E7 FE E7 ...
T2044 001:255.459 - 0.028ms returns 60 (0x3C)
T2044 001:255.466 JLINK_ReadMemEx(0x080002BC, 0x2 Bytes, Flags = 0x02000000)
T2044 001:255.473    -- Read from C cache (2 bytes @ 0x080002BC)
T2044 001:255.482   Data:  09 48
T2044 001:255.492 - 0.028ms returns 2 (0x2)
T2044 001:255.499 JLINK_ReadMemEx(0x080002BE, 0x2 Bytes, Flags = 0x02000000)
T2044 001:255.505    -- Read from C cache (2 bytes @ 0x080002BE)
T2044 001:255.515   Data:  00 47
T2044 001:255.524 - 0.028ms returns 2 (0x2)
T2044 001:442.739 JLINK_HasError()
T2044 001:442.806 JLINK_ReadReg(R0)
T2044 001:443.305 - 0.504ms returns 0x00000000
T2044 001:443.316 JLINK_ReadReg(R1)
T2044 001:443.323 - 0.009ms returns 0x00000000
T2044 001:443.330 JLINK_ReadReg(R2)
T2044 001:443.336 - 0.009ms returns 0x00000000
T2044 001:443.343 JLINK_ReadReg(R3)
T2044 001:443.350 - 0.009ms returns 0x00000000
T2044 001:443.357 JLINK_ReadReg(R4)
T2044 001:443.363 - 0.009ms returns 0x00000000
T2044 001:443.370 JLINK_ReadReg(R5)
T2044 001:443.376 - 0.009ms returns 0x00000000
T2044 001:443.383 JLINK_ReadReg(R6)
T2044 001:443.390 - 0.009ms returns 0x00000000
T2044 001:443.397 JLINK_ReadReg(R7)
T2044 001:443.403 - 0.009ms returns 0x00000000
T2044 001:443.410 JLINK_ReadReg(R8)
T2044 001:443.420 - 0.013ms returns 0x00000000
T2044 001:443.427 JLINK_ReadReg(R9)
T2044 001:443.433 - 0.009ms returns 0x00000000
T2044 001:443.440 JLINK_ReadReg(R10)
T2044 001:443.446 - 0.009ms returns 0x00000000
T2044 001:443.453 JLINK_ReadReg(R11)
T2044 001:443.460 - 0.009ms returns 0x00000000
T2044 001:443.467 JLINK_ReadReg(R12)
T2044 001:443.473 - 0.009ms returns 0x00000000
T2044 001:443.480 JLINK_ReadReg(R13 (SP))
T2044 001:443.487 - 0.010ms returns 0x2001B330
T2044 001:443.494 JLINK_ReadReg(R14)
T2044 001:443.500 - 0.009ms returns 0xFFFFFFFF
T2044 001:443.507 JLINK_ReadReg(R15 (PC))
T2044 001:443.514 - 0.010ms returns 0x080002B8
T2044 001:443.521 JLINK_ReadReg(XPSR)
T2044 001:443.527 - 0.009ms returns 0x01000000
T2044 001:443.534 JLINK_ReadReg(MSP)
T2044 001:443.540 - 0.009ms returns 0x2001B330
T2044 001:443.547 JLINK_ReadReg(PSP)
T2044 001:443.554 - 0.009ms returns 0x00000000
T2044 001:443.561 JLINK_ReadReg(CFBP)
T2044 001:443.567 - 0.009ms returns 0x00000000
T2044 001:443.574 JLINK_ReadReg(FPSCR)
T2044 001:446.927 - 3.370ms returns 0x00000000
T2044 001:446.953 JLINK_ReadReg(FPS0)
T2044 001:446.962 - 0.011ms returns 0x00000000
T2044 001:446.969 JLINK_ReadReg(FPS1)
T2044 001:446.976 - 0.010ms returns 0x00000000
T2044 001:446.984 JLINK_ReadReg(FPS2)
T2044 001:446.991 - 0.010ms returns 0x00000000
T2044 001:447.054 JLINK_ReadReg(FPS3)
T2044 001:447.062 - 0.010ms returns 0x00000000
T2044 001:447.069 JLINK_ReadReg(FPS4)
T2044 001:447.081 - 0.017ms returns 0x00000000
T2044 001:447.091 JLINK_ReadReg(FPS5)
T2044 001:447.097 - 0.009ms returns 0x00000000
T2044 001:447.104 JLINK_ReadReg(FPS6)
T2044 001:447.111 - 0.009ms returns 0x00000000
T2044 001:447.118 JLINK_ReadReg(FPS7)
T2044 001:447.124 - 0.009ms returns 0x00000000
T2044 001:447.131 JLINK_ReadReg(FPS8)
T2044 001:447.138 - 0.009ms returns 0x00000000
T2044 001:447.145 JLINK_ReadReg(FPS9)
T2044 001:447.151 - 0.009ms returns 0x00000000
T2044 001:447.158 JLINK_ReadReg(FPS10)
T2044 001:447.165 - 0.009ms returns 0x00000000
T2044 001:447.172 JLINK_ReadReg(FPS11)
T2044 001:447.178 - 0.009ms returns 0x00000000
T2044 001:447.185 JLINK_ReadReg(FPS12)
T2044 001:447.192 - 0.009ms returns 0x00000000
T2044 001:447.199 JLINK_ReadReg(FPS13)
T2044 001:447.205 - 0.009ms returns 0x00000000
T2044 001:447.212 JLINK_ReadReg(FPS14)
T2044 001:447.219 - 0.009ms returns 0x00000000
T2044 001:447.226 JLINK_ReadReg(FPS15)
T2044 001:447.232 - 0.009ms returns 0xFFFFFFFF
T2044 001:447.239 JLINK_ReadReg(FPS16)
T2044 001:447.246 - 0.009ms returns 0x00000000
T2044 001:447.253 JLINK_ReadReg(FPS17)
T2044 001:447.259 - 0.009ms returns 0x00000000
T2044 001:447.266 JLINK_ReadReg(FPS18)
T2044 001:447.273 - 0.009ms returns 0x00000000
T2044 001:447.280 JLINK_ReadReg(FPS19)
T2044 001:447.286 - 0.009ms returns 0x00000000
T2044 001:447.294 JLINK_ReadReg(FPS20)
T2044 001:447.300 - 0.009ms returns 0x00000000
T2044 001:447.307 JLINK_ReadReg(FPS21)
T2044 001:447.314 - 0.009ms returns 0x00000000
T2044 001:447.321 JLINK_ReadReg(FPS22)
T2044 001:447.327 - 0.009ms returns 0x00000000
T2044 001:447.335 JLINK_ReadReg(FPS23)
T2044 001:447.341 - 0.009ms returns 0x00000000
T2044 001:447.348 JLINK_ReadReg(FPS24)
T2044 001:447.354 - 0.009ms returns 0x00000000
T2044 001:447.361 JLINK_ReadReg(FPS25)
T2044 001:447.368 - 0.009ms returns 0x00000000
T2044 001:447.375 JLINK_ReadReg(FPS26)
T2044 001:447.381 - 0.009ms returns 0x00000000
T2044 001:447.389 JLINK_ReadReg(FPS27)
T2044 001:447.395 - 0.009ms returns 0x00000000
T2044 001:447.409 JLINK_ReadReg(FPS28)
T2044 001:447.416 - 0.009ms returns 0x00000000
T2044 001:447.423 JLINK_ReadReg(FPS29)
T2044 001:447.430 - 0.009ms returns 0x00000000
T2044 001:447.436 JLINK_ReadReg(FPS30)
T2044 001:447.443 - 0.009ms returns 0x00000000
T2044 001:447.450 JLINK_ReadReg(FPS31)
T2044 001:447.456 - 0.009ms returns 0xFFFFFFFF
T2E98 001:539.003 JLINK_ReadMemEx(0x080002B8, 0x2 Bytes, Flags = 0x02000000)
T2E98 001:539.046    -- Read from C cache (2 bytes @ 0x080002B8)
T2E98 001:539.066   Data:  09 48
T2E98 001:539.105 - 0.106ms returns 2 (0x2)
T2E98 001:539.118 JLINK_HasError()
T2E98 001:539.128 JLINK_SetBPEx(Addr = 0x0800A828, Type = 0xFFFFFFF2)
T2E98 001:539.146 - 0.021ms returns 0x00000001
T2E98 001:539.154 JLINK_HasError()
T2E98 001:539.161 JLINK_SetBPEx(Addr = 0x080002D4, Type = 0xFFFFFFF2)
T2E98 001:539.169 - 0.010ms returns 0x00000002
T2E98 001:539.176 JLINK_HasError()
T2E98 001:539.183 JLINK_SetBPEx(Addr = 0x0800893C, Type = 0xFFFFFFF2)
T2E98 001:539.191 - 0.010ms returns 0x00000003
T2E98 001:539.198 JLINK_HasError()
T2E98 001:539.205 JLINK_SetBPEx(Addr = 0x080089DA, Type = 0xFFFFFFF2)
T2E98 001:539.212 - 0.010ms returns 0x00000004
T2E98 001:539.219 JLINK_HasError()
T2E98 001:539.228 JLINK_HasError()
T2E98 001:539.235 JLINK_Go()
T2E98 001:539.250   CPU_WriteMem(4 bytes @ 0xE0002000)
T2E98 001:539.841   CPU_WriteMem(4 bytes @ 0xE0002000)
T2E98 001:540.466   CPU_WriteMem(4 bytes @ 0xE0002000)
T2E98 001:541.115   CPU_WriteMem(4 bytes @ 0xE0002000)
T2E98 001:541.692   CPU_ReadMem(4 bytes @ 0xE0001000)
T2E98 001:542.151   CPU_WriteMem(4 bytes @ 0xE0002008)
T2E98 001:542.174   CPU_WriteMem(4 bytes @ 0xE000200C)
T2E98 001:542.184   CPU_WriteMem(4 bytes @ 0xE0002010)
T2E98 001:542.194   CPU_WriteMem(4 bytes @ 0xE0002014)
T2E98 001:542.204   CPU_WriteMem(4 bytes @ 0xE0002018)
T2E98 001:542.214   CPU_WriteMem(4 bytes @ 0xE000201C)
T2E98 001:542.226   CPU_WriteMem(4 bytes @ 0xE0002020)
T2E98 001:542.236   CPU_WriteMem(4 bytes @ 0xE0002024)
T2E98 001:543.437   CPU_WriteMem(4 bytes @ 0xE0001004)
T2E98 001:544.588 - 5.359ms
T2E98 001:645.140 JLINK_HasError()
T2E98 001:645.198 JLINK_IsHalted()
T2E98 001:647.120 - 1.967ms returns TRUE
T2E98 001:647.174 JLINK_HasError()
T2E98 001:647.183 JLINK_Halt()
T2E98 001:647.190 - 0.010ms returns 0x00
T2E98 001:647.198 JLINK_IsHalted()
T2E98 001:647.204 - 0.009ms returns TRUE
T2E98 001:647.211 JLINK_IsHalted()
T2E98 001:647.218 - 0.009ms returns TRUE
T2E98 001:647.225 JLINK_IsHalted()
T2E98 001:647.231 - 0.009ms returns TRUE
T2E98 001:647.239 JLINK_HasError()
T2E98 001:647.246 JLINK_ReadReg(R15 (PC))
T2E98 001:647.259 - 0.016ms returns 0x080002D4
T2E98 001:647.266 JLINK_ReadReg(XPSR)
T2E98 001:647.273 - 0.010ms returns 0x21000000
T2E98 001:647.286 JLINK_HasError()
T2E98 001:647.293 JLINK_ClrBPEx(BPHandle = 0x00000001)
T2E98 001:647.301 - 0.010ms returns 0x00
T2E98 001:647.308 JLINK_HasError()
T2E98 001:647.315 JLINK_ClrBPEx(BPHandle = 0x00000002)
T2E98 001:647.322 - 0.010ms returns 0x00
T2E98 001:647.329 JLINK_HasError()
T2E98 001:647.336 JLINK_ClrBPEx(BPHandle = 0x00000003)
T2E98 001:647.342 - 0.009ms returns 0x00
T2E98 001:647.350 JLINK_HasError()
T2E98 001:647.357 JLINK_ClrBPEx(BPHandle = 0x00000004)
T2E98 001:647.363 - 0.009ms returns 0x00
T2E98 001:647.370 JLINK_HasError()
T2E98 001:647.377 JLINK_HasError()
T2E98 001:647.384 JLINK_ReadMemU32(0xE000ED30, 0x1 Items)
T2E98 001:647.397   CPU_ReadMem(4 bytes @ 0xE000ED30)
T2E98 001:647.896   Data:  02 00 00 00
T2E98 001:647.907 - 0.525ms returns 1 (0x1)
T2E98 001:647.914 JLINK_ReadMemU32(0xE0001028, 0x1 Items)
T2E98 001:647.923   CPU_ReadMem(4 bytes @ 0xE0001028)
T2E98 001:648.326   Data:  00 00 00 00
T2E98 001:648.337   Debug reg: DWT_FUNC[0]
T2E98 001:648.346 - 0.434ms returns 1 (0x1)
T2E98 001:648.354 JLINK_ReadMemU32(0xE0001038, 0x1 Items)
T2E98 001:648.361   CPU_ReadMem(4 bytes @ 0xE0001038)
T2E98 001:648.803   Data:  00 02 00 00
T2E98 001:648.814   Debug reg: DWT_FUNC[1]
T2E98 001:648.823 - 0.472ms returns 1 (0x1)
T2E98 001:648.831 JLINK_ReadMemU32(0xE0001048, 0x1 Items)
T2E98 001:648.838   CPU_ReadMem(4 bytes @ 0xE0001048)
T2E98 001:649.237   Data:  00 00 00 00
T2E98 001:649.248   Debug reg: DWT_FUNC[2]
T2E98 001:649.257 - 0.429ms returns 1 (0x1)
T2E98 001:649.264 JLINK_ReadMemU32(0xE0001058, 0x1 Items)
T2E98 001:649.272   CPU_ReadMem(4 bytes @ 0xE0001058)
T2E98 001:649.775   Data:  00 00 00 00
T2E98 001:649.785   Debug reg: DWT_FUNC[3]
T2E98 001:649.795 - 0.533ms returns 1 (0x1)
T2E98 001:649.861 JLINK_HasError()
T2E98 001:649.869 JLINK_ReadReg(R0)
T2E98 001:649.876 - 0.010ms returns 0x20000238
T2E98 001:649.883 JLINK_ReadReg(R1)
T2E98 001:649.890 - 0.009ms returns 0x2001B330
T2E98 001:649.897 JLINK_ReadReg(R2)
T2E98 001:649.904 - 0.009ms returns 0x00000000
T2E98 001:649.911 JLINK_ReadReg(R3)
T2E98 001:649.917 - 0.009ms returns 0x0800E800
T2E98 001:649.924 JLINK_ReadReg(R4)
T2E98 001:649.931 - 0.009ms returns 0x00000000
T2E98 001:649.939 JLINK_ReadReg(R5)
T2E98 001:649.946 - 0.009ms returns 0x20000238
T2E98 001:649.953 JLINK_ReadReg(R6)
T2E98 001:649.959 - 0.009ms returns 0x00000000
T2E98 001:649.967 JLINK_ReadReg(R7)
T2E98 001:649.973 - 0.009ms returns 0x0800E7DF
T2E98 001:649.980 JLINK_ReadReg(R8)
T2E98 001:649.987 - 0.009ms returns 0x00000000
T2E98 001:649.994 JLINK_ReadReg(R9)
T2E98 001:650.001 - 0.009ms returns 0x00000000
T2E98 001:650.008 JLINK_ReadReg(R10)
T2E98 001:650.014 - 0.009ms returns 0x0800E800
T2E98 001:650.021 JLINK_ReadReg(R11)
T2E98 001:650.028 - 0.009ms returns 0x0800E800
T2E98 001:650.035 JLINK_ReadReg(R12)
T2E98 001:650.041 - 0.009ms returns 0x00000000
T2E98 001:650.048 JLINK_ReadReg(R13 (SP))
T2E98 001:650.055 - 0.010ms returns 0x20000290
T2E98 001:650.062 JLINK_ReadReg(R14)
T2E98 001:650.069 - 0.009ms returns 0x08000557
T2E98 001:650.076 JLINK_ReadReg(R15 (PC))
T2E98 001:650.083 - 0.009ms returns 0x080002D4
T2E98 001:650.090 JLINK_ReadReg(XPSR)
T2E98 001:650.096 - 0.009ms returns 0x21000000
T2E98 001:650.103 JLINK_ReadReg(MSP)
T2E98 001:650.110 - 0.054ms returns 0x20000290
T2E98 001:650.166 JLINK_ReadReg(PSP)
T2E98 001:650.173 - 0.010ms returns 0x00000000
T2E98 001:650.180 JLINK_ReadReg(CFBP)
T2E98 001:650.186 - 0.009ms returns 0x00000000
T2E98 001:650.194 JLINK_ReadReg(FPSCR)
T2E98 001:652.884 - 2.700ms returns 0x00000000
T2E98 001:652.900 JLINK_ReadReg(FPS0)
T2E98 001:652.908 - 0.011ms returns 0x00000000
T2E98 001:652.915 JLINK_ReadReg(FPS1)
T2E98 001:652.922 - 0.010ms returns 0x00000000
T2E98 001:652.930 JLINK_ReadReg(FPS2)
T2E98 001:652.936 - 0.009ms returns 0x00000000
T2E98 001:652.943 JLINK_ReadReg(FPS3)
T2E98 001:652.950 - 0.009ms returns 0x00000000
T2E98 001:652.957 JLINK_ReadReg(FPS4)
T2E98 001:652.964 - 0.012ms returns 0x00000000
T2E98 001:652.974 JLINK_ReadReg(FPS5)
T2E98 001:652.983 - 0.013ms returns 0x00000000
T2E98 001:652.993 JLINK_ReadReg(FPS6)
T2E98 001:653.003 - 0.013ms returns 0x00000000
T2E98 001:653.012 JLINK_ReadReg(FPS7)
T2E98 001:653.021 - 0.013ms returns 0x00000000
T2E98 001:653.054 JLINK_ReadReg(FPS8)
T2E98 001:653.063 - 0.014ms returns 0x00000000
T2E98 001:653.073 JLINK_ReadReg(FPS9)
T2E98 001:653.081 - 0.010ms returns 0x00000000
T2E98 001:653.088 JLINK_ReadReg(FPS10)
T2E98 001:653.094 - 0.011ms returns 0x00000000
T2E98 001:653.104 JLINK_ReadReg(FPS11)
T2E98 001:653.114 - 0.014ms returns 0x00000000
T2E98 001:653.124 JLINK_ReadReg(FPS12)
T2E98 001:653.134 - 0.013ms returns 0x00000000
T2E98 001:653.169 JLINK_ReadReg(FPS13)
T2E98 001:653.177 - 0.011ms returns 0x00000000
T2E98 001:653.185 JLINK_ReadReg(FPS14)
T2E98 001:653.192 - 0.010ms returns 0x00000000
T2E98 001:653.199 JLINK_ReadReg(FPS15)
T2E98 001:653.206 - 0.010ms returns 0xFFFFFFFF
T2E98 001:653.214 JLINK_ReadReg(FPS16)
T2E98 001:653.221 - 0.010ms returns 0x00000000
T2E98 001:653.229 JLINK_ReadReg(FPS17)
T2E98 001:653.235 - 0.010ms returns 0x00000000
T2E98 001:653.244 JLINK_ReadReg(FPS18)
T2E98 001:653.250 - 0.009ms returns 0x00000000
T2E98 001:653.257 JLINK_ReadReg(FPS19)
T2E98 001:653.264 - 0.009ms returns 0x00000000
T2E98 001:653.271 JLINK_ReadReg(FPS20)
T2E98 001:653.278 - 0.009ms returns 0x00000000
T2E98 001:653.285 JLINK_ReadReg(FPS21)
T2E98 001:653.291 - 0.009ms returns 0x00000000
T2E98 001:653.299 JLINK_ReadReg(FPS22)
T2E98 001:653.305 - 0.010ms returns 0x00000000
T2E98 001:653.313 JLINK_ReadReg(FPS23)
T2E98 001:653.319 - 0.009ms returns 0x00000000
T2E98 001:653.326 JLINK_ReadReg(FPS24)
T2E98 001:653.333 - 0.009ms returns 0x00000000
T2E98 001:653.340 JLINK_ReadReg(FPS25)
T2E98 001:653.346 - 0.009ms returns 0x00000000
T2E98 001:653.353 JLINK_ReadReg(FPS26)
T2E98 001:653.360 - 0.009ms returns 0x00000000
T2E98 001:653.367 JLINK_ReadReg(FPS27)
T2E98 001:653.373 - 0.009ms returns 0x00000000
T2E98 001:653.381 JLINK_ReadReg(FPS28)
T2E98 001:653.387 - 0.009ms returns 0x00000000
T2E98 001:653.394 JLINK_ReadReg(FPS29)
T2E98 001:653.400 - 0.009ms returns 0x00000000
T2E98 001:653.407 JLINK_ReadReg(FPS30)
T2E98 001:653.414 - 0.009ms returns 0x00000000
T2E98 001:653.421 JLINK_ReadReg(FPS31)
T2E98 001:653.427 - 0.009ms returns 0xFFFFFFFF
T2E98 001:653.438 JLINK_ReadMemEx(0x2001A214, 0x4 Bytes, Flags = 0x02000000)
T2E98 001:653.450   CPU_ReadMem(4 bytes @ 0x2001A214)
T2E98 001:653.948   Data:  00 00 00 00
T2E98 001:653.966 - 0.530ms returns 4 (0x4)
T2044 001:654.808 JLINK_ReadMemEx(0xE000ED28, 0x4 Bytes, Flags = 0x02000000)
T2044 001:654.837   CPU_ReadMem(4 bytes @ 0xE000ED28)
T2044 001:655.443   Data:  00 00 00 00
T2044 001:655.453 - 0.648ms returns 4 (0x4)
T2044 001:656.191 JLINK_HasError()
T2044 001:656.205 JLINK_ReadMemU32(0xE0001004, 0x1 Items)
T2044 001:656.217   CPU_ReadMem(4 bytes @ 0xE0001004)
T2044 001:656.773   Data:  29 7B 00 00
T2044 001:656.784   Debug reg: DWT_CYCCNT
T2044 001:656.793 - 0.591ms returns 1 (0x1)
T2044 001:658.081 JLINK_ReadMemEx(0x40006400, 0x1C Bytes, Flags = 0x02000004)
T2044 001:658.107   CPU_ReadMem(28 bytes @ 0x40006400)
T2044 001:658.735   Data:  02 00 01 00 0A 0C 00 00 00 00 00 1C 00 00 00 00 ...
T2044 001:658.746 - 0.668ms returns 28 (0x1C)
T2044 001:658.755 JLINK_ReadMemEx(0x4000641C, 0x4 Bytes, Flags = 0x02000004)
T2044 001:658.815   CPU_ReadMem(4 bytes @ 0x4000641C)
T2044 001:659.323   Data:  00 00 23 01
T2044 001:659.344 - 0.591ms returns 4 (0x4)
T2044 001:659.355 JLINK_ReadMemEx(0x40006580, 0x4C Bytes, Flags = 0x02000004)
T2044 001:659.368   CPU_ReadMem(76 bytes @ 0x40006580)
T2044 001:660.104   Data:  00 00 00 00 00 00 00 00 00 00 00 00 00 00 00 00 ...
T2044 001:660.127 - 0.775ms returns 76 (0x4C)
T2044 001:660.139 JLINK_ReadMemEx(0x400065CC, 0x4 Bytes, Flags = 0x02000004)
T2044 001:660.151   CPU_ReadMem(4 bytes @ 0x400065CC)
T2044 001:660.710   Data:  00 00 00 00
T2044 001:660.728 - 0.592ms returns 4 (0x4)
T2044 001:660.736 JLINK_ReadMemEx(0x40006600, 0x4 Bytes, Flags = 0x02000004)
T2044 001:660.745   CPU_ReadMem(4 bytes @ 0x40006600)
T2044 001:661.190   Data:  01 0E 1C 2A
T2044 001:661.201 - 0.467ms returns 4 (0x4)
T2044 001:661.209 JLINK_ReadMemEx(0x40006604, 0x4 Bytes, Flags = 0x02000004)
T2044 001:661.216   CPU_ReadMem(4 bytes @ 0x40006604)
T2044 001:661.710   Data:  00 00 00 00
T2044 001:661.725 - 0.519ms returns 4 (0x4)
T2044 001:661.735 JLINK_ReadMemEx(0x4000660C, 0x4 Bytes, Flags = 0x02000004)
T2044 001:661.746   CPU_ReadMem(4 bytes @ 0x4000660C)
T2044 001:662.283   Data:  00 00 00 00
T2044 001:662.297 - 0.565ms returns 4 (0x4)
T2044 001:662.306 JLINK_ReadMemEx(0x40006614, 0x4 Bytes, Flags = 0x02000004)
T2044 001:662.315   CPU_ReadMem(4 bytes @ 0x40006614)
T2044 001:662.802   Data:  00 00 00 00
T2044 001:662.822 - 0.518ms returns 4 (0x4)
T2044 001:662.829 JLINK_ReadMemEx(0x4000661C, 0x4 Bytes, Flags = 0x02000004)
T2044 001:662.837   CPU_ReadMem(4 bytes @ 0x4000661C)
T2044 001:663.265   Data:  00 00 00 00
T2044 001:663.287 - 0.460ms returns 4 (0x4)
T2044 001:663.295 JLINK_ReadMemEx(0x40006640, 0xDC Bytes, Flags = 0x02000004)
T2044 001:663.302   CPU_ReadMem(220 bytes @ 0x40006640)
T2044 001:664.480   Data:  00 00 00 00 00 00 00 00 00 00 00 00 00 00 00 00 ...
T2044 001:664.500 - 1.208ms returns 220 (0xDC)
T2044 001:664.508 JLINK_ReadMemEx(0x4000671C, 0x4 Bytes, Flags = 0x02000004)
T2044 001:664.516   CPU_ReadMem(4 bytes @ 0x4000671C)
T2044 001:665.015   Data:  00 00 00 00
T2044 001:665.040 - 0.535ms returns 4 (0x4)
T2044 001:669.939 JLINK_ReadMemEx(0x080002D4, 0x3C Bytes, Flags = 0x02000000)
T2044 001:669.984   CPU_ReadMem(128 bytes @ 0x080002C0)
T2044 001:670.916    -- Updating C cache (128 bytes @ 0x080002C0)
T2044 001:670.927    -- Read from C cache (60 bytes @ 0x080002D4)
T2044 001:670.938   Data:  04 48 05 49 05 4A 06 4B 70 47 00 00 E9 97 00 08 ...
T2044 001:670.947 - 1.012ms returns 60 (0x3C)
T2044 001:670.956 JLINK_ReadMemEx(0x080002D4, 0x2 Bytes, Flags = 0x02000000)
T2044 001:670.964    -- Read from C cache (2 bytes @ 0x080002D4)
T2044 001:670.973   Data:  04 48
T2044 001:670.991 - 0.037ms returns 2 (0x2)
T2044 001:670.999 JLINK_ReadMemEx(0x080002D6, 0x2 Bytes, Flags = 0x02000000)
T2044 001:671.006    -- Read from C cache (2 bytes @ 0x080002D6)
T2044 001:671.015   Data:  05 49
T2044 001:671.024 - 0.028ms returns 2 (0x2)
T2044 001:671.055 JLINK_ReadMemEx(0x080002D6, 0x2 Bytes, Flags = 0x02000000)
T2044 001:671.062    -- Read from C cache (2 bytes @ 0x080002D6)
T2044 001:671.072   Data:  05 49
T2044 001:671.081 - 0.028ms returns 2 (0x2)
T2044 001:671.088 JLINK_ReadMemEx(0x080002D8, 0x3C Bytes, Flags = 0x02000000)
T2044 001:671.095    -- Read from C cache (60 bytes @ 0x080002D8)
T2044 001:671.105   Data:  05 4A 06 4B 70 47 00 00 E9 97 00 08 F9 01 00 08 ...
T2044 001:671.114 - 0.029ms returns 60 (0x3C)
T2044 001:671.121 JLINK_ReadMemEx(0x080002D8, 0x2 Bytes, Flags = 0x02000000)
T2044 001:671.128    -- Read from C cache (2 bytes @ 0x080002D8)
T2044 001:671.137   Data:  05 4A
T2044 001:671.146 - 0.028ms returns 2 (0x2)
T2044 001:671.157 JLINK_ReadMemEx(0x080002D8, 0x3C Bytes, Flags = 0x02000000)
T2044 001:671.164    -- Read from C cache (60 bytes @ 0x080002D8)
T2044 001:671.174   Data:  05 4A 06 4B 70 47 00 00 E9 97 00 08 F9 01 00 08 ...
T2044 001:671.183 - 0.029ms returns 60 (0x3C)
T2044 001:671.190 JLINK_ReadMemEx(0x080002D8, 0x2 Bytes, Flags = 0x02000000)
T2044 001:671.206    -- Read from C cache (2 bytes @ 0x080002D8)
T2044 001:671.216   Data:  05 4A
T2044 001:671.225 - 0.037ms returns 2 (0x2)
T2044 001:671.232 JLINK_ReadMemEx(0x080002DA, 0x2 Bytes, Flags = 0x02000000)
T2044 001:671.239    -- Read from C cache (2 bytes @ 0x080002DA)
T2044 001:671.248   Data:  06 4B
T2044 001:671.257 - 0.028ms returns 2 (0x2)
T2044 001:671.268 JLINK_ReadMemEx(0x080002DA, 0x2 Bytes, Flags = 0x02000000)
T2044 001:671.275    -- Read from C cache (2 bytes @ 0x080002DA)
T2044 001:671.284   Data:  06 4B
T2044 001:671.293 - 0.028ms returns 2 (0x2)
T2044 001:671.301 JLINK_ReadMemEx(0x080002DC, 0x3C Bytes, Flags = 0x02000000)
T2044 001:671.307    -- Read from C cache (60 bytes @ 0x080002DC)
T2044 001:671.317   Data:  70 47 00 00 E9 97 00 08 F9 01 00 08 30 A3 01 20 ...
T2044 001:671.326 - 0.028ms returns 60 (0x3C)
T2044 001:671.333 JLINK_ReadMemEx(0x080002DC, 0x2 Bytes, Flags = 0x02000000)
T2044 001:671.340    -- Read from C cache (2 bytes @ 0x080002DC)
T2044 001:671.349   Data:  70 47
T2044 001:671.359 - 0.028ms returns 2 (0x2)
T2044 001:671.369 JLINK_ReadMemEx(0x080002DC, 0x3C Bytes, Flags = 0x02000000)
T2044 001:671.376    -- Read from C cache (60 bytes @ 0x080002DC)
T2044 001:671.386   Data:  70 47 00 00 E9 97 00 08 F9 01 00 08 30 A3 01 20 ...
T2044 001:671.395 - 0.029ms returns 60 (0x3C)
T2044 001:671.402 JLINK_ReadMemEx(0x080002DC, 0x2 Bytes, Flags = 0x02000000)
T2044 001:671.409    -- Read from C cache (2 bytes @ 0x080002DC)
T2044 001:671.418   Data:  70 47
T2044 001:671.427 - 0.028ms returns 2 (0x2)
T2044 001:671.434 JLINK_ReadMemEx(0x080002DE, 0x2 Bytes, Flags = 0x02000000)
T2044 001:671.441    -- Read from C cache (2 bytes @ 0x080002DE)
T2044 001:671.450   Data:  00 00
T2044 001:671.459 - 0.028ms returns 2 (0x2)
T2044 001:671.470 JLINK_ReadMemEx(0x080002DE, 0x2 Bytes, Flags = 0x02000000)
T2044 001:671.477    -- Read from C cache (2 bytes @ 0x080002DE)
T2044 001:671.486   Data:  00 00
T2044 001:671.495 - 0.028ms returns 2 (0x2)
T2044 001:671.502 JLINK_ReadMemEx(0x080002E0, 0x3C Bytes, Flags = 0x02000000)
T2044 001:671.509    -- Read from C cache (60 bytes @ 0x080002E0)
T2044 001:671.519   Data:  E9 97 00 08 F9 01 00 08 30 A3 01 20 30 B3 01 20 ...
T2044 001:671.528 - 0.028ms returns 60 (0x3C)
T2044 001:671.535 JLINK_ReadMemEx(0x080002E0, 0x2 Bytes, Flags = 0x02000000)
T2044 001:671.541    -- Read from C cache (2 bytes @ 0x080002E0)
T2044 001:671.551   Data:  E9 97
T2044 001:671.560 - 0.028ms returns 2 (0x2)
T2044 001:671.571 JLINK_ReadMemEx(0x080002E0, 0x3C Bytes, Flags = 0x02000000)
T2044 001:671.577    -- Read from C cache (60 bytes @ 0x080002E0)
T2044 001:671.587   Data:  E9 97 00 08 F9 01 00 08 30 A3 01 20 30 B3 01 20 ...
T2044 001:671.596 - 0.028ms returns 60 (0x3C)
T2044 001:671.603 JLINK_ReadMemEx(0x080002E0, 0x2 Bytes, Flags = 0x02000000)
T2044 001:671.610    -- Read from C cache (2 bytes @ 0x080002E0)
T2044 001:671.622   Data:  E9 97
T2044 001:671.632 - 0.031ms returns 2 (0x2)
T2044 001:671.639 JLINK_ReadMemEx(0x080002E2, 0x2 Bytes, Flags = 0x02000000)
T2044 001:671.645    -- Read from C cache (2 bytes @ 0x080002E2)
T2044 001:671.655   Data:  00 08
T2044 001:671.664 - 0.028ms returns 2 (0x2)
T2044 001:671.674 JLINK_ReadMemEx(0x080002E2, 0x2 Bytes, Flags = 0x02000000)
T2044 001:671.681    -- Read from C cache (2 bytes @ 0x080002E2)
T2044 001:671.691   Data:  00 08
T2044 001:671.700 - 0.028ms returns 2 (0x2)
T2044 001:671.707 JLINK_ReadMemEx(0x080002E4, 0x3C Bytes, Flags = 0x02000000)
T2044 001:671.713    -- Read from C cache (60 bytes @ 0x080002E4)
T2044 001:671.723   Data:  F9 01 00 08 30 A3 01 20 30 B3 01 20 30 AB 01 20 ...
T2044 001:671.732 - 0.028ms returns 60 (0x3C)
T2044 001:671.739 JLINK_ReadMemEx(0x080002E4, 0x2 Bytes, Flags = 0x02000000)
T2044 001:671.746    -- Read from C cache (2 bytes @ 0x080002E4)
T2044 001:671.755   Data:  F9 01
T2044 001:671.764 - 0.028ms returns 2 (0x2)
T2044 001:671.775 JLINK_ReadMemEx(0x080002E4, 0x3C Bytes, Flags = 0x02000000)
T2044 001:671.783    -- Read from C cache (60 bytes @ 0x080002E4)
T2044 001:671.793   Data:  F9 01 00 08 30 A3 01 20 30 B3 01 20 30 AB 01 20 ...
T2044 001:671.802 - 0.030ms returns 60 (0x3C)
T2044 001:671.809 JLINK_ReadMemEx(0x080002E4, 0x2 Bytes, Flags = 0x02000000)
T2044 001:671.816    -- Read from C cache (2 bytes @ 0x080002E4)
T2044 001:671.825   Data:  F9 01
T2044 001:671.834 - 0.028ms returns 2 (0x2)
T2044 001:671.842 JLINK_ReadMemEx(0x080002E6, 0x2 Bytes, Flags = 0x02000000)
T2044 001:671.848    -- Read from C cache (2 bytes @ 0x080002E6)
T2044 001:671.858   Data:  00 08
T2044 001:671.868 - 0.029ms returns 2 (0x2)
T2044 001:671.879 JLINK_ReadMemEx(0x080002E6, 0x2 Bytes, Flags = 0x02000000)
T2044 001:671.889    -- Read from C cache (2 bytes @ 0x080002E6)
T2044 001:671.899   Data:  00 08
T2044 001:671.908 - 0.031ms returns 2 (0x2)
T2044 001:671.915 JLINK_ReadMemEx(0x080002E8, 0x3C Bytes, Flags = 0x02000000)
T2044 001:671.922    -- Read from C cache (60 bytes @ 0x080002E8)
T2044 001:671.931   Data:  30 A3 01 20 30 B3 01 20 30 AB 01 20 30 AB 01 20 ...
T2044 001:671.940 - 0.028ms returns 60 (0x3C)
T2044 001:671.947 JLINK_ReadMemEx(0x080002E8, 0x2 Bytes, Flags = 0x02000000)
T2044 001:671.954    -- Read from C cache (2 bytes @ 0x080002E8)
T2044 001:671.963   Data:  30 A3
T2044 001:671.973 - 0.028ms returns 2 (0x2)
T2E98 004:588.205 JLINK_ReadMemEx(0x080002D4, 0x2 Bytes, Flags = 0x02000000)
T2E98 004:588.252    -- Read from C cache (2 bytes @ 0x080002D4)
T2E98 004:588.263   Data:  04 48
T2E98 004:588.273 - 0.071ms returns 2 (0x2)
T2E98 004:588.282 JLINK_HasError()
T2E98 004:588.292 JLINK_Step()
T2E98 004:588.866    -- Read from C cache (2 bytes @ 0x080002D4)
T2E98 004:588.898   CPU_ReadMem(4 bytes @ 0xE000ED18)
T2E98 004:589.313   CPU_WriteMem(4 bytes @ 0xE000ED18)
T2E98 004:589.810   CPU_ReadMem(4 bytes @ 0xE000ED18)
T2E98 004:590.213   CPU_WriteMem(4 bytes @ 0xE000ED18)
T2E98 004:590.687    -- Read from C cache (4 bytes @ 0x080002E8)
T2E98 004:590.702   -- Simulated
T2E98 004:590.711 - 2.422ms returns 0
T2E98 004:590.721 JLINK_HasError()
T2E98 004:590.729 JLINK_ReadReg(R15 (PC))
T2E98 004:590.740 - 0.013ms returns 0x080002D6
T2E98 004:590.747 JLINK_ReadReg(XPSR)
T2E98 004:590.754 - 0.010ms returns 0x21000000
T2E98 004:590.765 JLINK_HasError()
T2E98 004:590.772 JLINK_SetBPEx(Addr = 0x080002D4, Type = 0xFFFFFFF2)
T2E98 004:590.781 - 0.011ms returns 0x00000005
T2E98 004:590.788 JLINK_HasError()
T2E98 004:590.795 JLINK_SetBPEx(Addr = 0x0800893C, Type = 0xFFFFFFF2)
T2E98 004:590.802 - 0.010ms returns 0x00000006
T2E98 004:590.809 JLINK_HasError()
T2E98 004:590.816 JLINK_SetBPEx(Addr = 0x080089DA, Type = 0xFFFFFFF2)
T2E98 004:590.823 - 0.010ms returns 0x00000007
T2E98 004:590.830 JLINK_HasError()
T2E98 004:590.838 JLINK_HasError()
T2E98 004:590.845 JLINK_Go()
T2E98 004:590.854   CPU_WriteMem(4 bytes @ 0xE0002000)
T2E98 004:591.346   CPU_WriteMem(4 bytes @ 0xE0002000)
T2E98 004:591.819   CPU_WriteMem(4 bytes @ 0xE0002000)
T2E98 004:592.578   CPU_ReadMem(4 bytes @ 0xE0001000)
T2E98 004:593.154   CPU_WriteMem(4 bytes @ 0xE0002008)
T2E98 004:593.167   CPU_WriteMem(4 bytes @ 0xE000200C)
T2E98 004:593.177   CPU_WriteMem(4 bytes @ 0xE0002010)
T2E98 004:593.186   CPU_WriteMem(4 bytes @ 0xE0002014)
T2E98 004:594.151   CPU_WriteMem(4 bytes @ 0xE0001004)
T2E98 004:595.978 - 5.137ms
T2E98 004:696.846 JLINK_HasError()
T2E98 004:696.884 JLINK_IsHalted()
T2E98 004:697.375 - 0.495ms returns FALSE
T2E98 004:797.496 JLINK_HasError()
T2E98 004:797.532 JLINK_IsHalted()
T2E98 004:797.971 - 0.442ms returns FALSE
T2E98 004:898.071 JLINK_HasError()
T2E98 004:898.136 JLINK_IsHalted()
T2E98 004:898.870 - 0.751ms returns FALSE
T2E98 004:999.777 JLINK_HasError()
T2E98 004:999.819 JLINK_IsHalted()
T2E98 005:000.581 - 0.788ms returns FALSE
T2E98 005:101.445 JLINK_HasError()
T2E98 005:101.479 JLINK_IsHalted()
T2E98 005:102.223 - 0.750ms returns FALSE
T2E98 005:203.169 JLINK_HasError()
T2E98 005:203.208 JLINK_HasError()
T2E98 005:203.221 JLINK_ReadMemU32(0xE0001004, 0x1 Items)
T2E98 005:203.251   CPU_ReadMem(4 bytes @ 0xE0001004)
T2E98 005:203.951   Data:  CE 4C CF 07
T2E98 005:204.088   Debug reg: DWT_CYCCNT
T2E98 005:204.096 - 0.878ms returns 1 (0x1)
T2044 005:205.711 JLINK_ReadMemEx(0x40006400, 0x1C Bytes, Flags = 0x02000004)
T2044 005:205.743   CPU_ReadMem(28 bytes @ 0x40006400)
T2044 005:206.361   Data:  00 00 01 00 08 0C 00 00 00 00 00 1C 00 00 00 00 ...
T2044 005:206.371 - 0.662ms returns 28 (0x1C)
T2044 005:206.380 JLINK_ReadMemEx(0x4000641C, 0x4 Bytes, Flags = 0x02000004)
T2044 005:206.388   CPU_ReadMem(4 bytes @ 0x4000641C)
T2044 005:206.935   Data:  1A 00 05 00
T2044 005:206.944 - 0.566ms returns 4 (0x4)
T2044 005:206.951 JLINK_ReadMemEx(0x40006580, 0x4C Bytes, Flags = 0x02000004)
T2044 005:206.958   CPU_ReadMem(76 bytes @ 0x40006580)
T2044 005:207.742   Data:  00 00 60 24 08 00 00 00 01 02 03 04 05 06 07 08 ...
T2044 005:207.751 - 0.803ms returns 76 (0x4C)
T2044 005:207.758 JLINK_ReadMemEx(0x400065CC, 0x4 Bytes, Flags = 0x02000004)
T2044 005:207.765   CPU_ReadMem(4 bytes @ 0x400065CC)
T2044 005:208.309   Data:  4B 08 AD D4
T2044 005:208.322 - 0.567ms returns 4 (0x4)
T2044 005:208.331 JLINK_ReadMemEx(0x40006600, 0x4 Bytes, Flags = 0x02000004)
T2044 005:208.339   CPU_ReadMem(4 bytes @ 0x40006600)
T2044 005:208.906   Data:  00 0E 1C 2A
T2044 005:208.925 - 0.597ms returns 4 (0x4)
T2044 005:208.935 JLINK_ReadMemEx(0x40006604, 0x4 Bytes, Flags = 0x02000004)
T2044 005:208.945   CPU_ReadMem(4 bytes @ 0x40006604)
T2044 005:209.391   Data:  00 00 00 00
T2044 005:209.400 - 0.468ms returns 4 (0x4)
T2044 005:209.407 JLINK_ReadMemEx(0x4000660C, 0x4 Bytes, Flags = 0x02000004)
T2044 005:209.415   CPU_ReadMem(4 bytes @ 0x4000660C)
T2044 005:209.980   Data:  01 00 00 00
T2044 005:209.990 - 0.585ms returns 4 (0x4)
